T21E8 30805:512.593   SEGGER J-Link V6.62 Log File
T21E8 30805:512.747   DLL Compiled: Jan 24 2020 16:32:09
T21E8 30805:512.761   Logging started @ 2021-07-04 15:20
T21E8 30805:512.786 JLINK_SetWarnOutHandler(...)
T21E8 30805:512.798 - 0.016ms
T21E8 30805:512.811 JLINK_OpenEx(...)
T21E8 30805:513.575   Firmware: J-Link V9 compiled Dec 13 2019 11:14:50
T21E8 30805:513.748   Decompressing FW timestamp took 139 us
T21E8 30805:519.406   Hardware: V9.30
T21E8 30805:519.430   S/N: 59300616
T21E8 30805:519.446   OEM: SEGGER
T21E8 30805:519.462   Feature(s): RDI, FlashBP, FlashDL, JFlash, GDB
T21E8 30805:520.430   TELNET listener socket opened on port 19021
T21E8 30805:524.145   WEBSRV Starting webserver
T21E8 30805:524.295   WEBSRV Webserver running on local port 19080
T21E8 30805:524.313 - 11.507ms returns "O.K."
T21E8 30805:524.342 JLINK_GetEmuCaps()
T21E8 30805:524.357 - 0.020ms returns 0xB9FF7BBF
T21E8 30805:524.377 JLINK_TIF_GetAvailable(...)
T21E8 30805:524.521 - 0.152ms
T21E8 30805:524.758 JLINK_SetErrorOutHandler(...)
T21E8 30805:524.771 - 0.017ms
T21E8 30805:524.789 JLINK_ExecCommand("ProjectFile = "C:\Users\Hyacincher\Desktop\Mainboard\Code\MDK-ARM\JLinkSettings.ini"", ...). 
T21E8 30805:526.975 - 2.194ms returns 0x00
T21E8 30805:527.014 JLINK_ExecCommand("Device = STM32F405RGTx", ...). 
T21E8 30805:528.191   Device "STM32F405RG" selected.
T21E8 30805:528.818 - 1.799ms returns 0x00
T21E8 30805:528.840 JLINK_ExecCommand("DisableConnectionTimeout", ...). 
T21E8 30805:528.880 - 0.011ms returns 0x01
T21E8 30805:528.903 JLINK_GetHardwareVersion()
T21E8 30805:528.916 - 0.020ms returns 0x16B48
T21E8 30805:528.934 JLINK_GetDLLVersion()  returns 66200
T21E8 30805:528.954 JLINK_GetFirmwareString(...)
T21E8 30805:528.968 - 0.020ms
T21E8 30805:529.022 JLINK_GetDLLVersion()  returns 66200
T21E8 30805:529.041 JLINK_GetCompileDateTime()
T21E8 30805:529.064 - 0.028ms
T21E8 30805:529.093 JLINK_GetFirmwareString(...)
T21E8 30805:529.103 - 0.016ms
T21E8 30805:529.120 JLINK_GetHardwareVersion()
T21E8 30805:529.131 - 0.016ms returns 0x16B48
T21E8 30805:529.170 JLINK_TIF_Select(JLINKARM_TIF_SWD)
T21E8 30805:529.594 - 0.432ms returns 0x00
T21E8 30805:529.616 JLINK_SetSpeed(50000)
T21E8 30805:529.681 - 0.072ms
T21E8 30805:529.699 JLINK_GetId()
T21E8 30805:530.287   Found SW-DP with ID 0x2BA01477
T21E8 30805:537.186   Found SW-DP with ID 0x2BA01477
T21E8 30805:538.380   Old FW that does not support reading DPIDR via DAP jobs
T21E8 30805:538.857   Unknown DP version. Assuming DPv0
T21E8 30805:538.880   Scanning AP map to find all available APs
T21E8 30805:539.266   AP[1]: Stopped AP scan as end of AP map has been reached
T21E8 30805:539.291   AP[0]: AHB-AP (IDR: 0x24770011)
T21E8 30805:539.311   Iterating through AP map to find AHB-AP to use
T21E8 30805:539.857   AP[0]: Core found
T21E8 30805:539.879   AP[0]: AHB-AP ROM base: 0xE00FF000
T21E8 30805:540.183   CPUID register: 0x410FC241. Implementer code: 0x41 (ARM)
T21E8 30805:540.214   Found Cortex-M4 r0p1, Little endian.
T21E8 30805:641.198    -- Max. mem block: 0x00010BB0
T21E8 30805:641.226    -- CPU_ReadMem(4 bytes @ 0xE000EDF0)
T21E8 30805:641.641    -- CPU_WriteMem(4 bytes @ 0xE000EDF0)
T21E8 30805:641.881    -- CPU_ReadMem(4 bytes @ 0xE0002000)
T21E8 30805:642.121   FPUnit: 6 code (BP) slots and 2 literal slots
T21E8 30805:642.140    -- CPU_ReadMem(4 bytes @ 0xE000EDFC)
T21E8 30805:642.331    -- CPU_WriteMem(4 bytes @ 0xE000EDFC)
T21E8 30805:642.530    -- CPU_ReadMem(4 bytes @ 0xE0001000)
T21E8 30805:642.721    -- CPU_WriteMem(4 bytes @ 0xE0001000)
T21E8 30805:642.936    -- CPU_ReadMem(4 bytes @ 0xE000ED88)
T21E8 30805:643.165    -- CPU_WriteMem(4 bytes @ 0xE000ED88)
T21E8 30805:643.379    -- CPU_ReadMem(4 bytes @ 0xE000ED88)
T21E8 30805:643.573    -- CPU_WriteMem(4 bytes @ 0xE000ED88)
T21E8 30805:643.784   CoreSight components:
T21E8 30805:643.807   ROMTbl[0] @ E00FF000
T21E8 30805:643.824    -- CPU_ReadMem(64 bytes @ 0xE00FF000)
T21E8 30805:644.180    -- CPU_ReadMem(32 bytes @ 0xE000EFE0)
T21E8 30805:644.460   ROMTbl[0][0]: E000E000, CID: B105E00D, PID: 000BB00C SCS-M7
T21E8 30805:644.535    -- CPU_ReadMem(32 bytes @ 0xE0001FE0)
T21E8 30805:644.836   ROMTbl[0][1]: E0001000, CID: B105E00D, PID: 003BB002 DWT
T21E8 30805:644.858    -- CPU_ReadMem(32 bytes @ 0xE0002FE0)
T21E8 30805:645.141   ROMTbl[0][2]: E0002000, CID: B105E00D, PID: 002BB003 FPB
T21E8 30805:645.161    -- CPU_ReadMem(32 bytes @ 0xE0000FE0)
T21E8 30805:645.441   ROMTbl[0][3]: E0000000, CID: B105E00D, PID: 003BB001 ITM
T21E8 30805:645.466    -- CPU_ReadMem(32 bytes @ 0xE0040FE0)
T21E8 30805:645.759   ROMTbl[0][4]: E0040000, CID: B105900D, PID: 000BB9A1 TPIU
T21E8 30805:645.788    -- CPU_ReadMem(32 bytes @ 0xE0041FE0)
T21E8 30805:646.133   ROMTbl[0][5]: E0041000, CID: B105900D, PID: 000BB925 ETM
T21E8 30805:646.320 - 116.630ms   returns 0x2BA01477
T21E8 30805:646.345 JLINK_GetDLLVersion()  returns 66200
T21E8 30805:646.410 JLINK_CORE_GetFound()
T21E8 30805:646.424 - 0.019ms returns 0xE0000FF
T21E8 30805:646.441 JLINK_GetDebugInfo(0x100 = JLINKARM_ROM_TABLE_ADDR_INDEX)
T21E8 30805:646.453   Value=0xE00FF000
T21E8 30805:646.469 - 0.033ms returns 0x00
T21E8 30805:646.492 JLINK_GetDebugInfo(0x100 = JLINKARM_ROM_TABLE_ADDR_INDEX)
T21E8 30805:646.503   Value=0xE00FF000
T21E8 30805:646.519 - 0.032ms returns 0x00
T21E8 30805:646.531 JLINK_GetDebugInfo(0x101 = JLINKARM_DEBUG_INFO_ETM_ADDR_INDEX)
T21E8 30805:646.542   Value=0xE0041000
T21E8 30805:646.558 - 0.031ms returns 0x00
T21E8 30805:646.573   JLINK_ReadMemEx(0xE0041FD0, 0x0020 Bytes, ..., Flags = 0x02000004)
T21E8 30805:646.596    -- CPU_ReadMem(32 bytes @ 0xE0041FD0)
T21E8 30805:646.883   Data:  04 00 00 00 00 00 00 00 00 00 00 00 00 00 00 00 ...
T21E8 30805:646.902 - 0.335ms returns 0x20
T21E8 30805:646.917 JLINK_GetDebugInfo(0x102 = JLINKARM_DEBUG_INFO_MTB_ADDR_INDEX)
T21E8 30805:646.929   Value=0x00000000
T21E8 30805:646.945 - 0.032ms returns 0x00
T21E8 30805:646.957 JLINK_GetDebugInfo(0x103 = JLINKARM_DEBUG_INFO_TPIU_ADDR_INDEX)
T21E8 30805:646.968   Value=0xE0040000
T21E8 30805:646.984 - 0.032ms returns 0x00
T21E8 30805:646.996 JLINK_GetDebugInfo(0x104 = JLINKARM_DEBUG_INFO_ITM_ADDR_INDEX)
T21E8 30805:647.007   Value=0xE0000000
T21E8 30805:647.023 - 0.031ms returns 0x00
T21E8 30805:647.035 JLINK_GetDebugInfo(0x105 = JLINKARM_DEBUG_INFO_DWT_ADDR_INDEX)
T21E8 30805:647.046   Value=0xE0001000
T21E8 30805:647.062 - 0.031ms returns 0x00
T21E8 30805:647.074 JLINK_GetDebugInfo(0x106 = JLINKARM_DEBUG_INFO_FPB_ADDR_INDEX)
T21E8 30805:647.085   Value=0xE0002000
T21E8 30805:647.100 - 0.031ms returns 0x00
T21E8 30805:647.112 JLINK_GetDebugInfo(0x107 = JLINKARM_DEBUG_INFO_NVIC_ADDR_INDEX)
T21E8 30805:647.123   Value=0xE000E000
T21E8 30805:647.139 - 0.031ms returns 0x00
T21E8 30805:647.151 JLINK_GetDebugInfo(0x10C = JLINKARM_DEBUG_INFO_DBG_ADDR_INDEX)
T21E8 30805:647.162   Value=0xE000EDF0
T21E8 30805:647.178 - 0.031ms returns 0x00
T21E8 30805:647.190 JLINK_GetDebugInfo(0x01 = Unknown)
T21E8 30805:647.201   Value=0x00000001
T21E8 30805:647.216 - 0.032ms returns 0x00
T21E8 30805:647.237   JLINK_ReadMemU32(0xE000ED00, 0x0001 Items, ...)
T21E8 30805:647.267    -- CPU_ReadMem(4 bytes @ 0xE000ED00)
T21E8 30805:647.489   Data:  41 C2 0F 41
T21E8 30805:647.509    - CPUID
T21E8 30805:647.524 - 0.293ms returns 1
T21E8 30805:647.540 JLINK_GetDebugInfo(0x10F = JLINKARM_DEBUG_INFO_HAS_CORTEX_M_SECURITY_EXT_INDEX)
T21E8 30805:647.551   Value=0x00000000
T21E8 30805:647.566 - 0.032ms returns 0x00
T21E8 30805:647.584 JLINK_SetResetType(JLINKARM_CM3_RESET_TYPE_NORMAL)
T21E8 30805:647.595 - 0.016ms returns JLINKARM_CM3_RESET_TYPE_NORMAL
T21E8 30805:647.609 JLINK_Reset()
T21E8 30805:647.624   CPU is running
T21E8 30805:647.641    -- CPU_WriteMem(4 bytes @ 0xE000EDF0)
T21E8 30805:647.854   CPU is running
T21E8 30805:647.874    -- CPU_WriteMem(4 bytes @ 0xE000EDFC)
T21E8 30805:648.098   Reset: Halt core after reset via DEMCR.VC_CORERESET.
T21E8 30805:648.397   Reset: Reset device via AIRCR.SYSRESETREQ.
T21E8 30805:648.416   CPU is running
T21E8 30805:648.433    -- CPU_WriteMem(4 bytes @ 0xE000ED0C)
T21E8 30805:700.629    -- CPU_ReadMem(4 bytes @ 0xE000EDF0)
T21E8 30805:700.831    -- CPU_ReadMem(4 bytes @ 0xE000EDF0)
T21E8 30805:701.047   CPU is running
T21E8 30805:701.066    -- CPU_WriteMem(4 bytes @ 0xE000EDF0)
T21E8 30805:701.254   CPU is running
T21E8 30805:701.272    -- CPU_WriteMem(4 bytes @ 0xE000EDFC)
T21E8 30805:707.344    -- CPU_ReadMem(4 bytes @ 0xE000EDF0)
T21E8 30805:708.873    -- CPU_WriteMem(4 bytes @ 0xE0002000)
T21E8 30805:709.078    -- CPU_ReadMem(4 bytes @ 0xE000EDFC)
T21E8 30805:709.277    -- CPU_ReadMem(4 bytes @ 0xE0001000)
T21E8 30805:709.477 - 61.876ms
T21E8 30805:709.554 JLINK_ReadReg(R15 (PC))
T21E8 30805:709.570 - 0.021ms returns 0x0800019C
T21E8 30805:709.583 JLINK_ReadReg(XPSR)
T21E8 30805:709.594 - 0.016ms returns 0x01000000
T21E8 30805:709.609 JLINK_Halt()
T21E8 30805:709.620 - 0.016ms returns 0x00
T21E8 30805:709.633   JLINK_ReadMemU32(0xE000EDF0, 0x0001 Items, ...)
T21E8 30805:709.654    -- CPU_ReadMem(4 bytes @ 0xE000EDF0)
T21E8 30805:709.851   Data:  03 00 03 00
T21E8 30805:709.869    - DHCSR
T21E8 30805:709.885 - 0.257ms returns 1
T21E8 30805:709.903   JLINK_WriteU32(0xE000EDF0, 0xA05F0003)
T21E8 30805:709.919    - DHCSR
T21E8 30805:709.950    -- CPU_WriteMem(4 bytes @ 0xE000EDF0)
T21E8 30805:710.199 - 0.313ms returns 0
T21E8 30805:710.225   JLINK_WriteU32(0xE000EDFC, 0x01000000)
T21E8 30805:710.241    - DEMCR
T21E8 30805:710.259    -- CPU_WriteMem(4 bytes @ 0xE000EDFC)
T21E8 30805:710.455 - 0.240ms returns 0
T21E8 30805:710.511 JLINK_GetHWStatus(...)
T21E8 30805:710.637 - 0.134ms returns 0x00
T21E8 30805:710.674 JLINK_GetNumBPUnits(Type = 0xFFFFFF00)
T21E8 30805:710.686 - 0.017ms returns 0x06
T21E8 30805:710.699 JLINK_GetNumBPUnits(Type = 0xF0)
T21E8 30805:710.709 - 0.016ms returns 0x2000
T21E8 30805:710.723 JLINK_GetNumWPUnits()
T21E8 30805:710.734 - 0.025ms returns 0x04
T21E8 30805:710.767 JLINK_GetSpeed()
T21E8 30805:710.778 - 0.015ms returns 0x2EE0
T21E8 30805:710.797   JLINK_ReadMemU32(0xE000E004, 0x0001 Items, ...)
T21E8 30805:710.829    -- CPU_ReadMem(4 bytes @ 0xE000E004)
T21E8 30805:711.053   Data:  02 00 00 00
T21E8 30805:711.081 - 0.289ms returns 1
T21E8 30805:711.096   JLINK_ReadMemU32(0xE000E004, 0x0001 Items, ...)
T21E8 30805:711.114    -- CPU_ReadMem(4 bytes @ 0xE000E004)
T21E8 30805:711.325   Data:  02 00 00 00
T21E8 30805:711.353 - 0.262ms returns 1
T21E8 30805:711.369 JLINK_WriteMemEx(0xE0001000, 0x001C Bytes, ..., Flags = 0x02000004)
T21E8 30805:711.381   Data:  01 00 00 00 00 00 00 00 00 00 00 00 00 00 00 00 ...
T21E8 30805:712.286    -- CPU_WriteMem(28 bytes @ 0xE0001000)
T21E8 30805:712.588 - 1.235ms returns 0x1C
T21E8 30805:712.617 JLINK_ReadReg(R15 (PC))
T21E8 30805:712.629 - 0.017ms returns 0x0800019C
T21E8 30805:712.642 JLINK_ReadReg(XPSR)
T21E8 30805:712.652 - 0.015ms returns 0x01000000
T21E8 30805:722.147   JLINK_ReadMemEx(0xE0001004, 0x0004 Bytes, ..., Flags = 0x02000000)
T21E8 30805:722.179   Data:  00 00 00 00
T21E8 30805:722.195    - DWT_CYCCNT
T21E8 30805:722.210 - 0.069ms returns 0x04
T21E8 30805:796.764 JLINK_SetResetType(JLINKARM_CM3_RESET_TYPE_NORMAL)
T21E8 30805:796.787 - 0.028ms returns JLINKARM_CM3_RESET_TYPE_NORMAL
T21E8 30805:796.800 JLINK_Reset()
T21E8 30805:796.821    -- CPU_WriteMem(4 bytes @ 0xE000EDF0)
T21E8 30805:797.059    -- CPU_WriteMem(4 bytes @ 0xE000EDFC)
T21E8 30805:797.271   Reset: Halt core after reset via DEMCR.VC_CORERESET.
T21E8 30805:797.561   Reset: Reset device via AIRCR.SYSRESETREQ.
T21E8 30805:797.584    -- CPU_WriteMem(4 bytes @ 0xE000ED0C)
T21E8 30805:849.269    -- CPU_ReadMem(4 bytes @ 0xE000EDF0)
T21E8 30805:849.481    -- CPU_ReadMem(4 bytes @ 0xE000EDF0)
T21E8 30805:849.673    -- CPU_WriteMem(4 bytes @ 0xE000EDF0)
T21E8 30805:849.871    -- CPU_WriteMem(4 bytes @ 0xE000EDFC)
T21E8 30805:855.470    -- CPU_ReadMem(4 bytes @ 0xE000EDF0)
T21E8 30805:857.131    -- CPU_WriteMem(4 bytes @ 0xE0002000)
T21E8 30805:857.337    -- CPU_ReadMem(4 bytes @ 0xE000EDFC)
T21E8 30805:857.563    -- CPU_ReadMem(4 bytes @ 0xE0001000)
T21E8 30805:857.802 - 61.025ms
T21E8 30805:857.883 JLINK_ReadReg(R15 (PC))
T21E8 30805:857.898 - 0.019ms returns 0x0800019C
T21E8 30805:857.910 JLINK_ReadReg(XPSR)
T21E8 30805:857.921 - 0.016ms returns 0x01000000
T21E8 30805:858.683   JLINK_ReadMemEx(0x08000188, 0x003C Bytes, ..., Flags = 0x02000000)
T21E8 30805:858.710    -- CPU_ReadMem(128 bytes @ 0x08000180)
T21E8 30805:859.278    -- Updating C cache (128 bytes @ 0x08000180)
T21E8 30805:859.299    -- Read from C cache (60 bytes @ 0x08000188)
T21E8 30805:859.317   Data:  DF F8 0C D0 00 F0 0A FC 00 48 00 47 31 8D 00 08 ...
T21E8 30805:859.333 - 0.656ms returns 0x3C
T21E8 30805:859.349   JLINK_ReadMemEx(0x08000188, 0x0002 Bytes, ..., Flags = 0x02000000)
T21E8 30805:859.367    -- Read from C cache (2 bytes @ 0x08000188)
T21E8 30805:859.383   Data:  DF F8
T21E8 30805:859.399 - 0.056ms returns 0x02
T21E8 30805:859.511   JLINK_ReadMemEx(0x0800018A, 0x0002 Bytes, ..., Flags = 0x02000000)
T21E8 30805:859.528    -- Read from C cache (2 bytes @ 0x0800018A)
T21E8 30805:859.544   Data:  0C D0
T21E8 30805:859.559 - 0.061ms returns 0x02
T21E8 30805:859.573   JLINK_ReadMemEx(0x0800018C, 0x003C Bytes, ..., Flags = 0x02000000)
T21E8 30805:859.589    -- Read from C cache (60 bytes @ 0x0800018C)
T21E8 30805:859.605   Data:  00 F0 0A FC 00 48 00 47 31 8D 00 08 B8 0C 00 20 ...
T21E8 30805:859.620 - 0.053ms returns 0x3C
T21E8 30805:859.632   JLINK_ReadMemEx(0x0800018C, 0x0002 Bytes, ..., Flags = 0x02000000)
T21E8 30805:859.648    -- Read from C cache (2 bytes @ 0x0800018C)
T21E8 30805:859.663   Data:  00 F0
T21E8 30805:859.679 - 0.052ms returns 0x02
T21E8 30805:859.691   JLINK_ReadMemEx(0x0800018E, 0x0002 Bytes, ..., Flags = 0x02000000)
T21E8 30805:859.707    -- Read from C cache (2 bytes @ 0x0800018E)
T21E8 30805:859.722   Data:  0A FC
T21E8 30805:859.738 - 0.051ms returns 0x02
T21E8 30805:859.750   JLINK_ReadMemEx(0x08000190, 0x003C Bytes, ..., Flags = 0x02000000)
T21E8 30805:859.766    -- Read from C cache (60 bytes @ 0x08000190)
T21E8 30805:859.782   Data:  00 48 00 47 31 8D 00 08 B8 0C 00 20 06 48 80 47 ...
T21E8 30805:859.797 - 0.052ms returns 0x3C
T21E8 30805:859.810   JLINK_ReadMemEx(0x08000190, 0x0002 Bytes, ..., Flags = 0x02000000)
T21E8 30805:859.825    -- Read from C cache (2 bytes @ 0x08000190)
T21E8 30805:859.840   Data:  00 48
T21E8 30805:859.856 - 0.051ms returns 0x02
T21E8 30805:859.868   JLINK_ReadMemEx(0x08000192, 0x0002 Bytes, ..., Flags = 0x02000000)
T21E8 30805:859.884    -- Read from C cache (2 bytes @ 0x08000192)
T21E8 30805:859.899   Data:  00 47
T21E8 30805:859.915 - 0.052ms returns 0x02
T21E8 30805:859.928   JLINK_ReadMemEx(0x08000192, 0x0002 Bytes, ..., Flags = 0x02000000)
T21E8 30805:859.944    -- Read from C cache (2 bytes @ 0x08000192)
T21E8 30805:859.961   Data:  00 47
T21E8 30805:859.977 - 0.054ms returns 0x02
T21E8 30805:859.989   JLINK_ReadMemEx(0x08000194, 0x003C Bytes, ..., Flags = 0x02000000)
T21E8 30805:860.005    -- Read from C cache (60 bytes @ 0x08000194)
T21E8 30805:860.021   Data:  31 8D 00 08 B8 0C 00 20 06 48 80 47 06 48 00 47 ...
T21E8 30805:860.036 - 0.052ms returns 0x3C
T21E8 30805:860.049   JLINK_ReadMemEx(0x08000194, 0x0002 Bytes, ..., Flags = 0x02000000)
T21E8 30805:860.064    -- Read from C cache (2 bytes @ 0x08000194)
T21E8 30805:860.080   Data:  31 8D
T21E8 30805:860.095 - 0.051ms returns 0x02
T21E8 30805:860.110   JLINK_ReadMemEx(0x0800019A, 0x0002 Bytes, ..., Flags = 0x02000000)
T21E8 30805:860.126    -- Read from C cache (2 bytes @ 0x0800019A)
T21E8 30805:860.141   Data:  00 20
T21E8 30805:860.157 - 0.052ms returns 0x02
T21E8 30805:860.169   JLINK_ReadMemEx(0x0800019C, 0x003C Bytes, ..., Flags = 0x02000000)
T21E8 30805:860.185    -- Read from C cache (60 bytes @ 0x0800019C)
T21E8 30805:860.201   Data:  06 48 80 47 06 48 00 47 FE E7 FE E7 FE E7 FE E7 ...
T21E8 30805:860.216 - 0.052ms returns 0x3C
T21E8 30805:860.228   JLINK_ReadMemEx(0x0800019C, 0x0002 Bytes, ..., Flags = 0x02000000)
T21E8 30805:860.244    -- Read from C cache (2 bytes @ 0x0800019C)
T21E8 30805:860.259   Data:  06 48
T21E8 30805:860.323 - 0.100ms returns 0x02
T21E8 30805:860.342   JLINK_ReadMemEx(0x0800019C, 0x003C Bytes, ..., Flags = 0x02000000)
T21E8 30805:860.358    -- Read from C cache (60 bytes @ 0x0800019C)
T21E8 30805:860.374   Data:  06 48 80 47 06 48 00 47 FE E7 FE E7 FE E7 FE E7 ...
T21E8 30805:860.390 - 0.053ms returns 0x3C
T21E8 30805:860.402   JLINK_ReadMemEx(0x0800019C, 0x0002 Bytes, ..., Flags = 0x02000000)
T21E8 30805:860.418    -- Read from C cache (2 bytes @ 0x0800019C)
T21E8 30805:860.433   Data:  06 48
T21E8 30805:860.448 - 0.051ms returns 0x02
T21E8 30805:860.464   JLINK_ReadMemEx(0x0800019E, 0x0002 Bytes, ..., Flags = 0x02000000)
T21E8 30805:860.498    -- Read from C cache (2 bytes @ 0x0800019E)
T21E8 30805:860.523   Data:  80 47
T21E8 30805:860.539 - 0.080ms returns 0x02
T21E8 30805:860.555   JLINK_ReadMemEx(0x0800019E, 0x0002 Bytes, ..., Flags = 0x02000000)
T21E8 30805:860.571    -- Read from C cache (2 bytes @ 0x0800019E)
T21E8 30805:860.586   Data:  80 47
T21E8 30805:860.601 - 0.052ms returns 0x02
T21E8 30805:860.614   JLINK_ReadMemEx(0x080001A0, 0x003C Bytes, ..., Flags = 0x02000000)
T21E8 30805:860.630    -- Read from C cache (60 bytes @ 0x080001A0)
T21E8 30805:860.646   Data:  06 48 00 47 FE E7 FE E7 FE E7 FE E7 FE E7 FE E7 ...
T21E8 30805:860.661 - 0.053ms returns 0x3C
T21E8 30805:860.674   JLINK_ReadMemEx(0x080001A0, 0x0002 Bytes, ..., Flags = 0x02000000)
T21E8 30805:860.689    -- Read from C cache (2 bytes @ 0x080001A0)
T21E8 30805:860.704   Data:  06 48
T21E8 30805:860.720 - 0.051ms returns 0x02
T21E8 30805:860.734   JLINK_ReadMemEx(0x080001A0, 0x003C Bytes, ..., Flags = 0x02000000)
T21E8 30805:860.750    -- Read from C cache (60 bytes @ 0x080001A0)
T21E8 30805:860.766   Data:  06 48 00 47 FE E7 FE E7 FE E7 FE E7 FE E7 FE E7 ...
T21E8 30805:860.781 - 0.052ms returns 0x3C
T21E8 30805:860.794   JLINK_ReadMemEx(0x080001A0, 0x0002 Bytes, ..., Flags = 0x02000000)
T21E8 30805:860.809    -- Read from C cache (2 bytes @ 0x080001A0)
T21E8 30805:860.825   Data:  06 48
T21E8 30805:860.840 - 0.052ms returns 0x02
T21E8 30805:860.853   JLINK_ReadMemEx(0x080001A2, 0x0002 Bytes, ..., Flags = 0x02000000)
T21E8 30805:860.869    -- Read from C cache (2 bytes @ 0x080001A2)
T21E8 30805:860.884   Data:  00 47
T21E8 30805:860.899 - 0.051ms returns 0x02
T21E8 30806:066.331   JLINK_ReadMemEx(0x40020000, 0x0014 Bytes, ..., Flags = 0x02000004)
T21E8 30806:066.366    -- CPU_ReadMem(20 bytes @ 0x40020000)
T21E8 30806:066.664   Data:  00 00 00 A8 00 00 00 A8 00 00 00 A8 00 00 00 A8 ...
T21E8 30806:066.686 - 0.361ms returns 0x14
T21E8 30806:066.705   JLINK_ReadMemEx(0x40020014, 0x0004 Bytes, ..., Flags = 0x02000004)
T21E8 30806:066.726    -- CPU_ReadMem(4 bytes @ 0x40020014)
T21E8 30806:066.954   Data:  00 00 00 A8
T21E8 30806:066.974 - 0.276ms returns 0x04
T21E8 30806:066.993   JLINK_ReadMemEx(0x4002001C, 0x0008 Bytes, ..., Flags = 0x02000004)
T21E8 30806:067.013    -- CPU_ReadMem(8 bytes @ 0x4002001C)
T21E8 30806:067.221   Data:  00 00 00 A8 00 00 00 A8
T21E8 30806:067.247 - 0.264ms returns 0x08
T21E8 30806:067.271   JLINK_ReadMemEx(0x40020024, 0x0004 Bytes, ..., Flags = 0x02000004)
T21E8 30806:067.298    -- CPU_ReadMem(4 bytes @ 0x40020024)
T21E8 30806:067.526   Data:  00 00 00 A8
T21E8 30806:067.546 - 0.280ms returns 0x04
T21E8 30806:140.502   JLINK_ReadMemEx(0x40020400, 0x0014 Bytes, ..., Flags = 0x02000004)
T21E8 30806:140.538    -- CPU_ReadMem(20 bytes @ 0x40020400)
T21E8 30806:140.814   Data:  80 02 00 00 80 02 00 00 80 02 00 00 80 02 00 00 ...
T21E8 30806:140.832 - 0.336ms returns 0x14
T21E8 30806:140.848   JLINK_ReadMemEx(0x40020414, 0x0004 Bytes, ..., Flags = 0x02000004)
T21E8 30806:140.867    -- CPU_ReadMem(4 bytes @ 0x40020414)
T21E8 30806:141.047   Data:  80 02 00 00
T21E8 30806:141.065 - 0.222ms returns 0x04
T21E8 30806:141.081   JLINK_ReadMemEx(0x4002041C, 0x0008 Bytes, ..., Flags = 0x02000004)
T21E8 30806:141.100    -- CPU_ReadMem(8 bytes @ 0x4002041C)
T21E8 30806:141.299   Data:  80 02 00 00 80 02 00 00
T21E8 30806:141.317 - 0.241ms returns 0x08
T21E8 30806:141.337   JLINK_ReadMemEx(0x40020424, 0x0004 Bytes, ..., Flags = 0x02000004)
T21E8 30806:141.359    -- CPU_ReadMem(4 bytes @ 0x40020424)
T21E8 30806:141.552   Data:  80 02 00 00
T21E8 30806:141.570 - 0.238ms returns 0x04
T21E8 30806:208.397   JLINK_ReadMemEx(0x40020800, 0x0014 Bytes, ..., Flags = 0x02000004)
T21E8 30806:208.435    -- CPU_ReadMem(20 bytes @ 0x40020800)
T21E8 30806:208.727   Data:  00 00 00 00 00 00 00 00 00 00 00 00 00 00 00 00 ...
T21E8 30806:208.755 - 0.364ms returns 0x14
T21E8 30806:208.772   JLINK_ReadMemEx(0x40020814, 0x0004 Bytes, ..., Flags = 0x02000004)
T21E8 30806:208.791    -- CPU_ReadMem(4 bytes @ 0x40020814)
T21E8 30806:209.056   Data:  00 00 00 00
T21E8 30806:209.075 - 0.308ms returns 0x04
T21E8 30806:209.102   JLINK_ReadMemEx(0x4002081C, 0x0008 Bytes, ..., Flags = 0x02000004)
T21E8 30806:209.121    -- CPU_ReadMem(8 bytes @ 0x4002081C)
T21E8 30806:209.371   Data:  00 00 00 00 00 00 00 00
T21E8 30806:209.392 - 0.296ms returns 0x08
T21E8 30806:209.416   JLINK_ReadMemEx(0x40020824, 0x0004 Bytes, ..., Flags = 0x02000004)
T21E8 30806:209.468    -- CPU_ReadMem(4 bytes @ 0x40020824)
T21E8 30806:209.724   Data:  00 00 00 00
T21E8 30806:209.748 - 0.339ms returns 0x04
T21E8 30806:279.582   JLINK_ReadMemEx(0x40003800, 0x0020 Bytes, ..., Flags = 0x02000004)
T21E8 30806:279.619    -- CPU_ReadMem(32 bytes @ 0x40003800)
T21E8 30806:279.931   Data:  00 00 00 00 00 00 00 00 00 00 00 00 00 00 00 00 ...
T21E8 30806:279.961 - 0.387ms returns 0x20
T21E8 30806:279.989   JLINK_ReadMemEx(0x40003820, 0x0004 Bytes, ..., Flags = 0x02000004)
T21E8 30806:280.021    -- CPU_ReadMem(4 bytes @ 0x40003820)
T21E8 30806:280.256   Data:  00 00 00 00
T21E8 30806:280.281 - 0.302ms returns 0x04
T21E8 30806:356.964   JLINK_ReadMemEx(0x40010000, 0x0010 Bytes, ..., Flags = 0x02000004)
T21E8 30806:357.011    -- CPU_ReadMem(16 bytes @ 0x40010000)
T21E8 30806:357.307   Data:  00 00 00 00 00 00 00 00 00 00 00 00 00 00 00 00
T21E8 30806:357.329 - 0.372ms returns 0x10
T21E8 30806:357.347   JLINK_ReadMemEx(0x40010010, 0x0004 Bytes, ..., Flags = 0x02000004)
T21E8 30806:357.367    -- CPU_ReadMem(4 bytes @ 0x40010010)
T21E8 30806:357.579   Data:  00 00 00 00
T21E8 30806:357.597 - 0.256ms returns 0x04
T21E8 30806:357.614   JLINK_ReadMemEx(0x40010018, 0x0014 Bytes, ..., Flags = 0x02000004)
T21E8 30806:357.633    -- CPU_ReadMem(20 bytes @ 0x40010018)
T21E8 30806:357.861   Data:  00 00 00 00 00 00 00 00 00 00 00 00 00 00 00 00 ...
T21E8 30806:357.879 - 0.270ms returns 0x14
T21E8 30806:357.894   JLINK_ReadMemEx(0x4001002C, 0x0004 Bytes, ..., Flags = 0x02000004)
T21E8 30806:357.912    -- CPU_ReadMem(4 bytes @ 0x4001002C)
T21E8 30806:358.123   Data:  00 00 00 00
T21E8 30806:358.143 - 0.254ms returns 0x04
T21E8 30806:358.160   JLINK_ReadMemEx(0x40010030, 0x0004 Bytes, ..., Flags = 0x02000004)
T21E8 30806:358.180    -- CPU_ReadMem(4 bytes @ 0x40010030)
T21E8 30806:358.395   Data:  00 00 00 00
T21E8 30806:358.415 - 0.261ms returns 0x04
T21E8 30806:358.432   JLINK_ReadMemEx(0x40010034, 0x000C Bytes, ..., Flags = 0x02000004)
T21E8 30806:358.453    -- CPU_ReadMem(12 bytes @ 0x40010034)
T21E8 30806:358.676   Data:  00 00 00 00 00 00 00 00 00 00 00 00
T21E8 30806:358.695 - 0.269ms returns 0x0C
T21E8 30806:358.713   JLINK_ReadMemEx(0x40010040, 0x0004 Bytes, ..., Flags = 0x02000004)
T21E8 30806:358.732    -- CPU_ReadMem(4 bytes @ 0x40010040)
T21E8 30806:358.946   Data:  00 00 00 00
T21E8 30806:358.970 - 0.263ms returns 0x04
T21E8 30806:358.987   JLINK_ReadMemEx(0x40010044, 0x0004 Bytes, ..., Flags = 0x02000004)
T21E8 30806:359.007    -- CPU_ReadMem(4 bytes @ 0x40010044)
T21E8 30806:359.220   Data:  00 00 00 00
T21E8 30806:359.240 - 0.259ms returns 0x04
T21E8 30806:359.257   JLINK_ReadMemEx(0x40010048, 0x0004 Bytes, ..., Flags = 0x02000004)
T21E8 30806:359.277    -- CPU_ReadMem(4 bytes @ 0x40010048)
T21E8 30806:359.528   Data:  00 00 00 00
T21E8 30806:359.552 - 0.303ms returns 0x04
T21E8 30806:359.575   JLINK_ReadMemEx(0x4001004C, 0x0004 Bytes, ..., Flags = 0x02000004)
T21E8 30806:359.600    -- CPU_ReadMem(4 bytes @ 0x4001004C)
T21E8 30806:359.832   Data:  00 00 00 00
T21E8 30806:359.862 - 0.299ms returns 0x04
T21E8 30806:425.515   JLINK_ReadMemEx(0x40004C00, 0x0014 Bytes, ..., Flags = 0x02000004)
T21E8 30806:425.550    -- CPU_ReadMem(20 bytes @ 0x40004C00)
T21E8 30806:425.833   Data:  00 00 00 00 00 00 00 00 00 00 00 00 00 00 00 00 ...
T21E8 30806:425.863 - 0.355ms returns 0x14
T21E8 30806:425.882   JLINK_ReadMemEx(0x40004C14, 0x0004 Bytes, ..., Flags = 0x02000004)
T21E8 30806:425.902    -- CPU_ReadMem(4 bytes @ 0x40004C14)
T21E8 30806:426.123   Data:  00 00 00 00
T21E8 30806:426.150 - 0.274ms returns 0x04
T21E8 30807:689.402   JLINK_ReadMemEx(0x0800019A, 0x0002 Bytes, ..., Flags = 0x02000000)
T21E8 30807:689.439    -- Read from C cache (2 bytes @ 0x0800019A)
T21E8 30807:689.457   Data:  00 20
T21E8 30807:689.477 - 0.084ms returns 0x02
T21E8 30807:689.501   JLINK_ReadMemEx(0x0800019C, 0x003C Bytes, ..., Flags = 0x02000000)
T21E8 30807:689.525    -- Read from C cache (60 bytes @ 0x0800019C)
T21E8 30807:689.554   Data:  06 48 80 47 06 48 00 47 FE E7 FE E7 FE E7 FE E7 ...
T21E8 30807:689.575 - 0.083ms returns 0x3C
T21E8 30807:689.592   JLINK_ReadMemEx(0x0800019C, 0x0002 Bytes, ..., Flags = 0x02000000)
T21E8 30807:689.614    -- Read from C cache (2 bytes @ 0x0800019C)
T21E8 30807:689.636   Data:  06 48
T21E8 30807:689.652 - 0.066ms returns 0x02
T21E8 30807:689.677   JLINK_ReadMemEx(0x0800019C, 0x003C Bytes, ..., Flags = 0x02000000)
T21E8 30807:689.695    -- Read from C cache (60 bytes @ 0x0800019C)
T21E8 30807:689.714   Data:  06 48 80 47 06 48 00 47 FE E7 FE E7 FE E7 FE E7 ...
T21E8 30807:689.730 - 0.058ms returns 0x3C
T21E8 30807:689.743   JLINK_ReadMemEx(0x0800019C, 0x0002 Bytes, ..., Flags = 0x02000000)
T21E8 30807:689.759    -- Read from C cache (2 bytes @ 0x0800019C)
T21E8 30807:689.775   Data:  06 48
T21E8 30807:689.791 - 0.054ms returns 0x02
T21E8 30807:689.805   JLINK_ReadMemEx(0x0800019E, 0x0002 Bytes, ..., Flags = 0x02000000)
T21E8 30807:689.821    -- Read from C cache (2 bytes @ 0x0800019E)
T21E8 30807:689.837   Data:  80 47
T21E8 30807:689.853 - 0.054ms returns 0x02
T21E8 30807:689.871   JLINK_ReadMemEx(0x0800019E, 0x0002 Bytes, ..., Flags = 0x02000000)
T21E8 30807:689.888    -- Read from C cache (2 bytes @ 0x0800019E)
T21E8 30807:689.904   Data:  80 47
T21E8 30807:689.920 - 0.055ms returns 0x02
T21E8 30807:689.933   JLINK_ReadMemEx(0x080001A0, 0x003C Bytes, ..., Flags = 0x02000000)
T21E8 30807:689.949    -- Read from C cache (60 bytes @ 0x080001A0)
T21E8 30807:689.966   Data:  06 48 00 47 FE E7 FE E7 FE E7 FE E7 FE E7 FE E7 ...
T21E8 30807:689.982 - 0.054ms returns 0x3C
T21E8 30807:689.995   JLINK_ReadMemEx(0x080001A0, 0x0002 Bytes, ..., Flags = 0x02000000)
T21E8 30807:690.011    -- Read from C cache (2 bytes @ 0x080001A0)
T21E8 30807:690.027   Data:  06 48
T21E8 30807:690.043 - 0.054ms returns 0x02
T21E8 30807:690.059   JLINK_ReadMemEx(0x080001A0, 0x003C Bytes, ..., Flags = 0x02000000)
T21E8 30807:690.076    -- Read from C cache (60 bytes @ 0x080001A0)
T21E8 30807:690.092   Data:  06 48 00 47 FE E7 FE E7 FE E7 FE E7 FE E7 FE E7 ...
T21E8 30807:690.108 - 0.055ms returns 0x3C
T21E8 30807:690.121   JLINK_ReadMemEx(0x080001A0, 0x0002 Bytes, ..., Flags = 0x02000000)
T21E8 30807:690.138    -- Read from C cache (2 bytes @ 0x080001A0)
T21E8 30807:690.154   Data:  06 48
T21E8 30807:690.170 - 0.054ms returns 0x02
T21E8 30807:690.183   JLINK_ReadMemEx(0x080001A2, 0x0002 Bytes, ..., Flags = 0x02000000)
T21E8 30807:690.199    -- Read from C cache (2 bytes @ 0x080001A2)
T21E8 30807:690.215   Data:  00 47
T21E8 30807:690.235 - 0.060ms returns 0x02
T21E8 30808:878.798 JLINK_ReadReg(R0)
T21E8 30808:879.047 - 0.257ms returns 0x00000000
T21E8 30808:879.065 JLINK_ReadReg(R1)
T21E8 30808:879.076 - 0.016ms returns 0x00000000
T21E8 30808:879.089 JLINK_ReadReg(R2)
T21E8 30808:879.100 - 0.016ms returns 0x00000000
T21E8 30808:879.113 JLINK_ReadReg(R3)
T21E8 30808:879.123 - 0.016ms returns 0x00000000
T21E8 30808:879.136 JLINK_ReadReg(R4)
T21E8 30808:879.147 - 0.019ms returns 0x00000000
T21E8 30808:879.166 JLINK_ReadReg(R5)
T21E8 30808:879.177 - 0.016ms returns 0x00000000
T21E8 30808:879.189 JLINK_ReadReg(R6)
T21E8 30808:879.200 - 0.016ms returns 0x00000000
T21E8 30808:879.212 JLINK_ReadReg(R7)
T21E8 30808:879.223 - 0.016ms returns 0x00000000
T21E8 30808:879.236 JLINK_ReadReg(R8)
T21E8 30808:879.247 - 0.015ms returns 0x00000000
T21E8 30808:879.259 JLINK_ReadReg(R9)
T21E8 30808:879.270 - 0.016ms returns 0x00000000
T21E8 30808:879.282 JLINK_ReadReg(R10)
T21E8 30808:879.293 - 0.016ms returns 0x00000000
T21E8 30808:879.306 JLINK_ReadReg(R11)
T21E8 30808:879.316 - 0.016ms returns 0x00000000
T21E8 30808:879.329 JLINK_ReadReg(R12)
T21E8 30808:879.340 - 0.015ms returns 0x00000000
T21E8 30808:879.352 JLINK_ReadReg(R13 (SP))
T21E8 30808:879.363 - 0.016ms returns 0x20000CB8
T21E8 30808:879.376 JLINK_ReadReg(R14)
T21E8 30808:879.386 - 0.015ms returns 0xFFFFFFFF
T21E8 30808:879.399 JLINK_ReadReg(R15 (PC))
T21E8 30808:879.410 - 0.016ms returns 0x0800019C
T21E8 30808:879.422 JLINK_ReadReg(XPSR)
T21E8 30808:879.433 - 0.015ms returns 0x01000000
T21E8 30808:879.445 JLINK_ReadReg(MSP)
T21E8 30808:879.456 - 0.015ms returns 0x20000CB8
T21E8 30808:879.469 JLINK_ReadReg(PSP)
T21E8 30808:879.479 - 0.016ms returns 0x00000000
T21E8 30808:879.495 JLINK_ReadReg(CFBP)
T21E8 30808:879.506 - 0.016ms returns 0x00000000
T21E8 30808:879.518 JLINK_ReadReg(FPSCR)
T21E8 30808:881.441 - 1.934ms returns 0x00000000
T21E8 30808:881.467 JLINK_ReadReg(FPS0)
T21E8 30808:881.485 - 0.028ms returns 0x00000000
T21E8 30808:881.507 JLINK_ReadReg(FPS1)
T21E8 30808:881.523 - 0.023ms returns 0x00000000
T21E8 30808:881.541 JLINK_ReadReg(FPS2)
T21E8 30808:881.558 - 0.025ms returns 0x00000000
T21E8 30808:881.578 JLINK_ReadReg(FPS3)
T21E8 30808:881.595 - 0.024ms returns 0x00000000
T21E8 30808:881.615 JLINK_ReadReg(FPS4)
T21E8 30808:881.631 - 0.024ms returns 0x00000000
T21E8 30808:881.651 JLINK_ReadReg(FPS5)
T21E8 30808:881.668 - 0.025ms returns 0x00000000
T21E8 30808:881.688 JLINK_ReadReg(FPS6)
T21E8 30808:881.705 - 0.025ms returns 0x00000000
T21E8 30808:881.725 JLINK_ReadReg(FPS7)
T21E8 30808:881.742 - 0.025ms returns 0x00000000
T21E8 30808:881.762 JLINK_ReadReg(FPS8)
T21E8 30808:881.779 - 0.024ms returns 0x00000000
T21E8 30808:881.798 JLINK_ReadReg(FPS9)
T21E8 30808:881.814 - 0.023ms returns 0x00000000
T21E8 30808:881.832 JLINK_ReadReg(FPS10)
T21E8 30808:881.849 - 0.024ms returns 0x00000000
T21E8 30808:881.869 JLINK_ReadReg(FPS11)
T21E8 30808:881.886 - 0.024ms returns 0x00000000
T21E8 30808:881.906 JLINK_ReadReg(FPS12)
T21E8 30808:881.923 - 0.024ms returns 0x00000000
T21E8 30808:881.942 JLINK_ReadReg(FPS13)
T21E8 30808:881.959 - 0.024ms returns 0x00000000
T21E8 30808:881.977 JLINK_ReadReg(FPS14)
T21E8 30808:881.993 - 0.022ms returns 0x00000000
T21E8 30808:882.012 JLINK_ReadReg(FPS15)
T21E8 30808:882.029 - 0.025ms returns 0x00000000
T21E8 30808:882.049 JLINK_ReadReg(FPS16)
T21E8 30808:882.066 - 0.025ms returns 0x00000000
T21E8 30808:882.086 JLINK_ReadReg(FPS17)
T21E8 30808:882.102 - 0.024ms returns 0x00000000
T21E8 30808:882.122 JLINK_ReadReg(FPS18)
T21E8 30808:882.138 - 0.023ms returns 0x00000000
T21E8 30808:882.157 JLINK_ReadReg(FPS19)
T21E8 30808:882.174 - 0.025ms returns 0x00000000
T21E8 30808:882.193 JLINK_ReadReg(FPS20)
T21E8 30808:882.210 - 0.024ms returns 0x00000000
T21E8 30808:882.230 JLINK_ReadReg(FPS21)
T21E8 30808:882.246 - 0.024ms returns 0x00000000
T21E8 30808:882.266 JLINK_ReadReg(FPS22)
T21E8 30808:882.283 - 0.024ms returns 0x00000000
T21E8 30808:882.301 JLINK_ReadReg(FPS23)
T21E8 30808:882.317 - 0.023ms returns 0x00000000
T21E8 30808:882.337 JLINK_ReadReg(FPS24)
T21E8 30808:882.354 - 0.025ms returns 0x00000000
T21E8 30808:882.373 JLINK_ReadReg(FPS25)
T21E8 30808:882.390 - 0.025ms returns 0x00000000
T21E8 30808:882.410 JLINK_ReadReg(FPS26)
T21E8 30808:882.427 - 0.025ms returns 0x00000000
T21E8 30808:882.446 JLINK_ReadReg(FPS27)
T21E8 30808:882.462 - 0.023ms returns 0x00000000
T21E8 30808:882.480 JLINK_ReadReg(FPS28)
T21E8 30808:882.556 - 0.088ms returns 0x00000000
T21E8 30808:882.580 JLINK_ReadReg(FPS29)
T21E8 30808:882.597 - 0.024ms returns 0x00000000
T21E8 30808:882.616 JLINK_ReadReg(FPS30)
T21E8 30808:882.633 - 0.025ms returns 0x00000000
T21E8 30808:882.653 JLINK_ReadReg(FPS31)
T21E8 30808:882.670 - 0.024ms returns 0x00000000
T21E8 30808:892.252   JLINK_ReadMemEx(0x20000628, 0x0008 Bytes, ..., Flags = 0x02000000)
T21E8 30808:892.289    -- CPU_ReadMem(64 bytes @ 0x20000600)
T21E8 30808:892.681    -- Updating C cache (64 bytes @ 0x20000600)
T21E8 30808:892.701    -- Read from C cache (8 bytes @ 0x20000628)
T21E8 30808:892.718   Data:  6A 02 00 00 00 00 00 00
T21E8 30808:892.734 - 0.488ms returns 0x08
T21E8 30808:892.857   JLINK_ReadMemEx(0x20000628, 0x0008 Bytes, ..., Flags = 0x02000000)
T21E8 30808:892.877    -- Read from C cache (8 bytes @ 0x20000628)
T21E8 30808:892.893   Data:  6A 02 00 00 00 00 00 00
T21E8 30808:892.909 - 0.058ms returns 0x08
T21E8 30808:892.933   JLINK_ReadMemEx(0x20000628, 0x0008 Bytes, ..., Flags = 0x02000000)
T21E8 30808:892.950    -- Read from C cache (8 bytes @ 0x20000628)
T21E8 30808:892.966   Data:  6A 02 00 00 00 00 00 00
T21E8 30808:892.982 - 0.055ms returns 0x08
T42D0 30809:126.641   JLINK_ReadMemEx(0x0800019C, 0x0002 Bytes, ..., Flags = 0x02000000)
T42D0 30809:126.673    -- Read from C cache (2 bytes @ 0x0800019C)
T42D0 30809:126.690   Data:  06 48
T42D0 30809:126.707 - 0.072ms returns 0x02
T42D0 30809:126.734   JLINK_SetBPEx(Addr = 0x08008D30, Type = 0xFFFFFFF2)
T42D0 30809:126.754 - 0.026ms returns 0x00000001
T42D0 30809:126.773 JLINK_Go()
T42D0 30809:126.831    -- CPU_WriteMem(4 bytes @ 0xE0002000)
T42D0 30809:127.115    -- CPU_ReadMem(4 bytes @ 0xE0001000)
T42D0 30809:127.335    -- CPU_WriteMem(4 bytes @ 0xE0002008)
T42D0 30809:127.363    -- CPU_WriteMem(4 bytes @ 0xE000200C)
T42D0 30809:127.385    -- CPU_WriteMem(4 bytes @ 0xE0002010)
T42D0 30809:127.408    -- CPU_WriteMem(4 bytes @ 0xE0002014)
T42D0 30809:127.434    -- CPU_WriteMem(4 bytes @ 0xE0002018)
T42D0 30809:127.451    -- CPU_WriteMem(4 bytes @ 0xE000201C)
T42D0 30809:128.239    -- CPU_WriteMem(4 bytes @ 0xE0001004)
T42D0 30809:128.706 - 1.944ms
T42D0 30809:229.361 JLINK_IsHalted()
T42D0 30809:230.676 - 1.327ms returns TRUE
T42D0 30809:230.701 JLINK_Halt()
T42D0 30809:230.712 - 0.016ms returns 0x00
T42D0 30809:230.725 JLINK_IsHalted()
T42D0 30809:230.736 - 0.016ms returns TRUE
T42D0 30809:230.748 JLINK_IsHalted()
T42D0 30809:230.759 - 0.015ms returns TRUE
T42D0 30809:230.771 JLINK_IsHalted()
T42D0 30809:230.782 - 0.015ms returns TRUE
T42D0 30809:230.797 JLINK_ReadReg(R15 (PC))
T42D0 30809:230.810 - 0.018ms returns 0x08008D30
T42D0 30809:230.825 JLINK_ReadReg(XPSR)
T42D0 30809:230.836 - 0.016ms returns 0x61000000
T42D0 30809:230.857 JLINK_ClrBPEx(BPHandle = 0x00000001)
T42D0 30809:230.869 - 0.017ms returns 0x00
T42D0 30809:230.886   JLINK_ReadMemU32(0xE000ED30, 0x0001 Items, ...)
T42D0 30809:230.908    -- CPU_ReadMem(4 bytes @ 0xE000ED30)
T42D0 30809:231.108   Data:  02 00 00 00
T42D0 30809:231.127 - 0.246ms returns 1
T42D0 30809:231.142   JLINK_ReadMemU32(0xE0001028, 0x0001 Items, ...)
T42D0 30809:231.161    -- CPU_ReadMem(4 bytes @ 0xE0001028)
T42D0 30809:231.355   Data:  00 00 00 00
T42D0 30809:231.376    - DWT_FUNC[0]
T42D0 30809:231.392 - 0.255ms returns 1
T42D0 30809:231.407   JLINK_ReadMemU32(0xE0001038, 0x0001 Items, ...)
T42D0 30809:231.427    -- CPU_ReadMem(4 bytes @ 0xE0001038)
T42D0 30809:231.624   Data:  00 02 00 00
T42D0 30809:231.642    - DWT_FUNC[1]
T42D0 30809:231.658 - 0.256ms returns 1
T42D0 30809:231.673   JLINK_ReadMemU32(0xE0001048, 0x0001 Items, ...)
T42D0 30809:231.692    -- CPU_ReadMem(4 bytes @ 0xE0001048)
T42D0 30809:231.884   Data:  00 00 00 00
T42D0 30809:231.902    - DWT_FUNC[2]
T42D0 30809:231.918 - 0.250ms returns 1
T42D0 30809:231.933   JLINK_ReadMemU32(0xE0001058, 0x0001 Items, ...)
T42D0 30809:231.952    -- CPU_ReadMem(4 bytes @ 0xE0001058)
T42D0 30809:232.158   Data:  00 00 00 00
T42D0 30809:232.176    - DWT_FUNC[3]
T42D0 30809:232.192 - 0.315ms returns 1
T42D0 30809:232.303 JLINK_ReadReg(R0)
T42D0 30809:232.317 - 0.019ms returns 0x08008D31
T42D0 30809:232.330 JLINK_ReadReg(R1)
T42D0 30809:232.341 - 0.016ms returns 0x20000CB8
T42D0 30809:232.354 JLINK_ReadReg(R2)
T42D0 30809:232.365 - 0.016ms returns 0x00000000
T42D0 30809:232.377 JLINK_ReadReg(R3)
T42D0 30809:232.388 - 0.015ms returns 0x08009C21
T42D0 30809:232.401 JLINK_ReadReg(R4)
T42D0 30809:232.412 - 0.016ms returns 0x08009E10
T42D0 30809:232.424 JLINK_ReadReg(R5)
T42D0 30809:232.435 - 0.015ms returns 0x08009E10
T42D0 30809:232.447 JLINK_ReadReg(R6)
T42D0 30809:232.458 - 0.016ms returns 0x00000000
T42D0 30809:232.471 JLINK_ReadReg(R7)
T42D0 30809:232.481 - 0.016ms returns 0x00000000
T42D0 30809:232.494 JLINK_ReadReg(R8)
T42D0 30809:232.505 - 0.015ms returns 0x00000000
T42D0 30809:232.517 JLINK_ReadReg(R9)
T42D0 30809:232.528 - 0.016ms returns 0x00000000
T42D0 30809:232.540 JLINK_ReadReg(R10)
T42D0 30809:232.551 - 0.015ms returns 0x00000000
T42D0 30809:232.564 JLINK_ReadReg(R11)
T42D0 30809:232.574 - 0.015ms returns 0x00000000
T42D0 30809:232.587 JLINK_ReadReg(R12)
T42D0 30809:232.598 - 0.015ms returns 0x00000000
T42D0 30809:232.610 JLINK_ReadReg(R13 (SP))
T42D0 30809:232.621 - 0.016ms returns 0x20000CB8
T42D0 30809:232.634 JLINK_ReadReg(R14)
T42D0 30809:232.645 - 0.015ms returns 0x080009C1
T42D0 30809:232.657 JLINK_ReadReg(R15 (PC))
T42D0 30809:232.668 - 0.016ms returns 0x08008D30
T42D0 30809:232.681 JLINK_ReadReg(XPSR)
T42D0 30809:232.692 - 0.015ms returns 0x61000000
T42D0 30809:232.704 JLINK_ReadReg(MSP)
T42D0 30809:232.715 - 0.015ms returns 0x20000CB8
T42D0 30809:232.727 JLINK_ReadReg(PSP)
T42D0 30809:232.738 - 0.015ms returns 0x00000000
T42D0 30809:232.750 JLINK_ReadReg(CFBP)
T42D0 30809:232.761 - 0.015ms returns 0x00000000
T42D0 30809:232.774 JLINK_ReadReg(FPSCR)
T42D0 30809:234.681 - 1.915ms returns 0x00000000
T42D0 30809:234.698 JLINK_ReadReg(FPS0)
T42D0 30809:234.711 - 0.017ms returns 0x00000000
T42D0 30809:234.724 JLINK_ReadReg(FPS1)
T42D0 30809:234.735 - 0.016ms returns 0x00000000
T42D0 30809:234.747 JLINK_ReadReg(FPS2)
T42D0 30809:234.758 - 0.016ms returns 0x00000000
T42D0 30809:234.771 JLINK_ReadReg(FPS3)
T42D0 30809:234.781 - 0.016ms returns 0x00000000
T42D0 30809:234.794 JLINK_ReadReg(FPS4)
T42D0 30809:234.805 - 0.015ms returns 0x00000000
T42D0 30809:234.817 JLINK_ReadReg(FPS5)
T42D0 30809:234.835 - 0.024ms returns 0x00000000
T42D0 30809:234.854 JLINK_ReadReg(FPS6)
T42D0 30809:234.868 - 0.022ms returns 0x00000000
T42D0 30809:234.885 JLINK_ReadReg(FPS7)
T42D0 30809:234.897 - 0.017ms returns 0x00000000
T42D0 30809:234.909 JLINK_ReadReg(FPS8)
T42D0 30809:234.920 - 0.016ms returns 0x00000000
T42D0 30809:234.932 JLINK_ReadReg(FPS9)
T42D0 30809:234.943 - 0.016ms returns 0x00000000
T42D0 30809:234.956 JLINK_ReadReg(FPS10)
T42D0 30809:234.967 - 0.016ms returns 0x00000000
T42D0 30809:234.979 JLINK_ReadReg(FPS11)
T42D0 30809:234.990 - 0.016ms returns 0x00000000
T42D0 30809:235.003 JLINK_ReadReg(FPS12)
T42D0 30809:235.013 - 0.016ms returns 0x00000000
T42D0 30809:235.026 JLINK_ReadReg(FPS13)
T42D0 30809:235.037 - 0.015ms returns 0x00000000
T42D0 30809:235.049 JLINK_ReadReg(FPS14)
T42D0 30809:235.060 - 0.015ms returns 0x00000000
T42D0 30809:235.072 JLINK_ReadReg(FPS15)
T42D0 30809:235.083 - 0.015ms returns 0x00000000
T42D0 30809:235.096 JLINK_ReadReg(FPS16)
T42D0 30809:235.106 - 0.016ms returns 0x00000000
T42D0 30809:235.119 JLINK_ReadReg(FPS17)
T42D0 30809:235.130 - 0.016ms returns 0x00000000
T42D0 30809:235.142 JLINK_ReadReg(FPS18)
T42D0 30809:235.153 - 0.016ms returns 0x00000000
T42D0 30809:235.165 JLINK_ReadReg(FPS19)
T42D0 30809:235.176 - 0.016ms returns 0x00000000
T42D0 30809:235.188 JLINK_ReadReg(FPS20)
T42D0 30809:235.199 - 0.015ms returns 0x00000000
T42D0 30809:235.212 JLINK_ReadReg(FPS21)
T42D0 30809:235.222 - 0.015ms returns 0x00000000
T42D0 30809:235.235 JLINK_ReadReg(FPS22)
T42D0 30809:235.246 - 0.016ms returns 0x00000000
T42D0 30809:235.259 JLINK_ReadReg(FPS23)
T42D0 30809:235.269 - 0.016ms returns 0x00000000
T42D0 30809:235.285 JLINK_ReadReg(FPS24)
T42D0 30809:235.298 - 0.018ms returns 0x00000000
T42D0 30809:235.310 JLINK_ReadReg(FPS25)
T42D0 30809:235.321 - 0.019ms returns 0x00000000
T42D0 30809:235.337 JLINK_ReadReg(FPS26)
T42D0 30809:235.348 - 0.016ms returns 0x00000000
T42D0 30809:235.360 JLINK_ReadReg(FPS27)
T42D0 30809:235.371 - 0.015ms returns 0x00000000
T42D0 30809:235.384 JLINK_ReadReg(FPS28)
T42D0 30809:235.394 - 0.015ms returns 0x00000000
T42D0 30809:235.407 JLINK_ReadReg(FPS29)
T42D0 30809:235.418 - 0.016ms returns 0x00000000
T42D0 30809:235.430 JLINK_ReadReg(FPS30)
T42D0 30809:235.441 - 0.016ms returns 0x00000000
T42D0 30809:235.453 JLINK_ReadReg(FPS31)
T42D0 30809:235.464 - 0.015ms returns 0x00000000
T21E8 30809:248.137   JLINK_ReadMemEx(0x20000628, 0x0008 Bytes, ..., Flags = 0x02000000)
T21E8 30809:248.174    -- CPU_ReadMem(64 bytes @ 0x20000600)
T21E8 30809:248.560    -- Updating C cache (64 bytes @ 0x20000600)
T21E8 30809:248.580    -- Read from C cache (8 bytes @ 0x20000628)
T21E8 30809:248.596   Data:  00 00 00 00 00 00 00 00
T21E8 30809:248.611 - 0.480ms returns 0x08
T21E8 30809:251.007   JLINK_ReadMemEx(0x40004C00, 0x0014 Bytes, ..., Flags = 0x02000004)
T21E8 30809:251.037    -- CPU_ReadMem(20 bytes @ 0x40004C00)
T21E8 30809:251.283   Data:  00 00 00 00 00 00 00 00 00 00 00 00 00 00 00 00 ...
T21E8 30809:251.303 - 0.302ms returns 0x14
T21E8 30809:251.321   JLINK_ReadMemEx(0x40004C14, 0x0004 Bytes, ..., Flags = 0x02000004)
T21E8 30809:251.342    -- CPU_ReadMem(4 bytes @ 0x40004C14)
T21E8 30809:251.565   Data:  00 00 00 00
T21E8 30809:251.586 - 0.271ms returns 0x04
T21E8 30809:251.780   JLINK_ReadMemEx(0x40020000, 0x0014 Bytes, ..., Flags = 0x02000004)
T21E8 30809:251.802    -- CPU_ReadMem(20 bytes @ 0x40020000)
T21E8 30809:252.053   Data:  00 00 00 A8 00 00 00 A8 00 00 00 A8 00 00 00 A8 ...
T21E8 30809:252.071 - 0.297ms returns 0x14
T21E8 30809:252.087   JLINK_ReadMemEx(0x40020014, 0x0004 Bytes, ..., Flags = 0x02000004)
T21E8 30809:252.106    -- CPU_ReadMem(4 bytes @ 0x40020014)
T21E8 30809:252.295   Data:  00 00 00 A8
T21E8 30809:252.313 - 0.231ms returns 0x04
T21E8 30809:252.329   JLINK_ReadMemEx(0x4002001C, 0x0008 Bytes, ..., Flags = 0x02000004)
T21E8 30809:252.349    -- CPU_ReadMem(8 bytes @ 0x4002001C)
T21E8 30809:252.552   Data:  00 00 00 A8 00 00 00 A8
T21E8 30809:252.569 - 0.246ms returns 0x08
T21E8 30809:252.585   JLINK_ReadMemEx(0x40020024, 0x0004 Bytes, ..., Flags = 0x02000004)
T21E8 30809:252.603    -- CPU_ReadMem(4 bytes @ 0x40020024)
T21E8 30809:252.792   Data:  00 00 00 A8
T21E8 30809:252.809 - 0.230ms returns 0x04
T21E8 30809:253.158   JLINK_ReadMemEx(0x40010000, 0x0010 Bytes, ..., Flags = 0x02000004)
T21E8 30809:253.179    -- CPU_ReadMem(16 bytes @ 0x40010000)
T21E8 30809:253.440   Data:  00 00 00 00 00 00 00 00 00 00 00 00 00 00 00 00
T21E8 30809:253.462 - 0.310ms returns 0x10
T21E8 30809:253.479   JLINK_ReadMemEx(0x40010010, 0x0004 Bytes, ..., Flags = 0x02000004)
T21E8 30809:253.504    -- CPU_ReadMem(4 bytes @ 0x40010010)
T21E8 30809:253.732   Data:  00 00 00 00
T21E8 30809:253.752 - 0.279ms returns 0x04
T21E8 30809:253.769   JLINK_ReadMemEx(0x40010018, 0x0014 Bytes, ..., Flags = 0x02000004)
T21E8 30809:253.789    -- CPU_ReadMem(20 bytes @ 0x40010018)
T21E8 30809:254.059   Data:  00 00 00 00 00 00 00 00 00 00 00 00 00 00 00 00 ...
T21E8 30809:254.077 - 0.314ms returns 0x14
T21E8 30809:254.093   JLINK_ReadMemEx(0x4001002C, 0x0004 Bytes, ..., Flags = 0x02000004)
T21E8 30809:254.112    -- CPU_ReadMem(4 bytes @ 0x4001002C)
T21E8 30809:254.335   Data:  00 00 00 00
T21E8 30809:254.359 - 0.276ms returns 0x04
T21E8 30809:254.381   JLINK_ReadMemEx(0x40010030, 0x0004 Bytes, ..., Flags = 0x02000004)
T21E8 30809:254.401    -- CPU_ReadMem(4 bytes @ 0x40010030)
T21E8 30809:254.631   Data:  00 00 00 00
T21E8 30809:254.650 - 0.275ms returns 0x04
T21E8 30809:254.667   JLINK_ReadMemEx(0x40010034, 0x000C Bytes, ..., Flags = 0x02000004)
T21E8 30809:254.687    -- CPU_ReadMem(12 bytes @ 0x40010034)
T21E8 30809:254.916   Data:  00 00 00 00 00 00 00 00 00 00 00 00
T21E8 30809:254.951 - 0.289ms returns 0x0C
T21E8 30809:254.967   JLINK_ReadMemEx(0x40010040, 0x0004 Bytes, ..., Flags = 0x02000004)
T21E8 30809:254.986    -- CPU_ReadMem(4 bytes @ 0x40010040)
T21E8 30809:255.200   Data:  00 00 00 00
T21E8 30809:255.227 - 0.266ms returns 0x04
T21E8 30809:255.243   JLINK_ReadMemEx(0x40010044, 0x0004 Bytes, ..., Flags = 0x02000004)
T21E8 30809:255.261    -- CPU_ReadMem(4 bytes @ 0x40010044)
T21E8 30809:255.456   Data:  00 00 00 00
T21E8 30809:255.489 - 0.252ms returns 0x04
T21E8 30809:255.508   JLINK_ReadMemEx(0x40010048, 0x0004 Bytes, ..., Flags = 0x02000004)
T21E8 30809:255.540    -- CPU_ReadMem(4 bytes @ 0x40010048)
T21E8 30809:255.754   Data:  00 00 00 00
T21E8 30809:255.781 - 0.278ms returns 0x04
T21E8 30809:255.797   JLINK_ReadMemEx(0x4001004C, 0x0004 Bytes, ..., Flags = 0x02000004)
T21E8 30809:255.815    -- CPU_ReadMem(4 bytes @ 0x4001004C)
T21E8 30809:256.064   Data:  00 00 00 00
T21E8 30809:256.090 - 0.299ms returns 0x04
T21E8 30809:256.511   JLINK_ReadMemEx(0x40003800, 0x0020 Bytes, ..., Flags = 0x02000004)
T21E8 30809:256.532    -- CPU_ReadMem(32 bytes @ 0x40003800)
T21E8 30809:256.821   Data:  00 00 00 00 00 00 00 00 00 00 00 00 00 00 00 00 ...
T21E8 30809:256.851 - 0.345ms returns 0x20
T21E8 30809:256.866   JLINK_ReadMemEx(0x40003820, 0x0004 Bytes, ..., Flags = 0x02000004)
T21E8 30809:256.884    -- CPU_ReadMem(4 bytes @ 0x40003820)
T21E8 30809:257.089   Data:  00 00 00 00
T21E8 30809:257.117 - 0.255ms returns 0x04
T21E8 30809:257.293   JLINK_ReadMemEx(0x40020400, 0x0014 Bytes, ..., Flags = 0x02000004)
T21E8 30809:257.312    -- CPU_ReadMem(20 bytes @ 0x40020400)
T21E8 30809:257.576   Data:  80 02 00 00 80 02 00 00 80 02 00 00 80 02 00 00 ...
T21E8 30809:257.602 - 0.315ms returns 0x14
T21E8 30809:257.618   JLINK_ReadMemEx(0x40020414, 0x0004 Bytes, ..., Flags = 0x02000004)
T21E8 30809:257.635    -- CPU_ReadMem(4 bytes @ 0x40020414)
T21E8 30809:257.836   Data:  80 02 00 00
T21E8 30809:257.865 - 0.252ms returns 0x04
T21E8 30809:257.880   JLINK_ReadMemEx(0x4002041C, 0x0008 Bytes, ..., Flags = 0x02000004)
T21E8 30809:257.897    -- CPU_ReadMem(8 bytes @ 0x4002041C)
T21E8 30809:258.091   Data:  80 02 00 00 80 02 00 00
T21E8 30809:258.109 - 0.234ms returns 0x08
T21E8 30809:258.124   JLINK_ReadMemEx(0x40020424, 0x0004 Bytes, ..., Flags = 0x02000004)
T21E8 30809:258.142    -- CPU_ReadMem(4 bytes @ 0x40020424)
T21E8 30809:258.329   Data:  80 02 00 00
T21E8 30809:258.346 - 0.230ms returns 0x04
T21E8 30809:258.665   JLINK_ReadMemEx(0x40020800, 0x0014 Bytes, ..., Flags = 0x02000004)
T21E8 30809:258.686    -- CPU_ReadMem(20 bytes @ 0x40020800)
T21E8 30809:258.912   Data:  00 00 00 00 00 00 00 00 00 00 00 00 00 00 00 00 ...
T21E8 30809:258.929 - 0.269ms returns 0x14
T21E8 30809:258.945   JLINK_ReadMemEx(0x40020814, 0x0004 Bytes, ..., Flags = 0x02000004)
T21E8 30809:258.963    -- CPU_ReadMem(4 bytes @ 0x40020814)
T21E8 30809:259.154   Data:  00 00 00 00
T21E8 30809:259.171 - 0.232ms returns 0x04
T21E8 30809:259.187   JLINK_ReadMemEx(0x4002081C, 0x0008 Bytes, ..., Flags = 0x02000004)
T21E8 30809:259.205    -- CPU_ReadMem(8 bytes @ 0x4002081C)
T21E8 30809:259.430   Data:  00 00 00 00 00 00 00 00
T21E8 30809:259.449 - 0.268ms returns 0x08
T21E8 30809:259.467   JLINK_ReadMemEx(0x40020824, 0x0004 Bytes, ..., Flags = 0x02000004)
T21E8 30809:259.487    -- CPU_ReadMem(4 bytes @ 0x40020824)
T21E8 30809:259.682   Data:  00 00 00 00
T21E8 30809:259.700 - 0.239ms returns 0x04
T21E8 30809:262.626   JLINK_ReadMemEx(0x08008C30, 0x003C Bytes, ..., Flags = 0x02000000)
T21E8 30809:262.649    -- CPU_ReadMem(128 bytes @ 0x08008C00)
T21E8 30809:263.205    -- Updating C cache (128 bytes @ 0x08008C00)
T21E8 30809:263.223    -- Read from C cache (60 bytes @ 0x08008C30)
T21E8 30809:263.240   Data:  41 EC 11 0B 51 EC 11 0B F7 F7 53 FD 40 F2 20 11 ...
T21E8 30809:263.256 - 0.635ms returns 0x3C
T21E8 30809:263.270   JLINK_ReadMemEx(0x08008C30, 0x0002 Bytes, ..., Flags = 0x02000000)
T21E8 30809:263.287    -- Read from C cache (2 bytes @ 0x08008C30)
T21E8 30809:263.308   Data:  41 EC
T21E8 30809:263.323 - 0.059ms returns 0x02
T21E8 30809:263.337   JLINK_ReadMemEx(0x08008C32, 0x0002 Bytes, ..., Flags = 0x02000000)
T21E8 30809:263.353    -- Read from C cache (2 bytes @ 0x08008C32)
T21E8 30809:263.382   Data:  11 0B
T21E8 30809:263.397 - 0.066ms returns 0x02
T21E8 30809:263.412   JLINK_ReadMemEx(0x08008C34, 0x003C Bytes, ..., Flags = 0x02000000)
T21E8 30809:263.438    -- Read from C cache (60 bytes @ 0x08008C34)
T21E8 30809:263.464   Data:  51 EC 11 0B F7 F7 53 FD 40 F2 20 11 C2 F2 00 01 ...
T21E8 30809:263.480 - 0.073ms returns 0x3C
T21E8 30809:263.493   JLINK_ReadMemEx(0x08008C34, 0x0002 Bytes, ..., Flags = 0x02000000)
T21E8 30809:263.509    -- Read from C cache (2 bytes @ 0x08008C34)
T21E8 30809:263.534   Data:  51 EC
T21E8 30809:263.550 - 0.062ms returns 0x02
T21E8 30809:263.562   JLINK_ReadMemEx(0x08008C36, 0x0002 Bytes, ..., Flags = 0x02000000)
T21E8 30809:263.578    -- Read from C cache (2 bytes @ 0x08008C36)
T21E8 30809:263.593   Data:  11 0B
T21E8 30809:263.608 - 0.051ms returns 0x02
T21E8 30809:263.621   JLINK_ReadMemEx(0x08008C38, 0x003C Bytes, ..., Flags = 0x02000000)
T21E8 30809:263.637    -- Read from C cache (60 bytes @ 0x08008C38)
T21E8 30809:263.653   Data:  F7 F7 53 FD 40 F2 20 11 C2 F2 00 01 88 62 03 98 ...
T21E8 30809:263.668 - 0.052ms returns 0x3C
T21E8 30809:263.680   JLINK_ReadMemEx(0x08008C38, 0x0002 Bytes, ..., Flags = 0x02000000)
T21E8 30809:263.696    -- Read from C cache (2 bytes @ 0x08008C38)
T21E8 30809:263.711   Data:  F7 F7
T21E8 30809:263.726 - 0.051ms returns 0x02
T21E8 30809:263.739   JLINK_ReadMemEx(0x08008C3A, 0x0002 Bytes, ..., Flags = 0x02000000)
